frequency,Z,phase,Z_re,Z_im
1000000.0,8435.968,-85.70682,631.5168,-8412.297
794328.2,11249.46,-83.32022,1308.541,-11173.09
630957.3,14622.0,-81.81781,2081.022,-14473.15
501187.2,18803.99,-79.89447,3299.382,-18512.27
398107.1,23615.97,-78.76109,4602.763,-23163.09
316227.7,29483.15,-77.30596,6478.768,-28762.5
251188.6,36895.43,-75.14731,9457.581,-35662.68
199526.2,45001.04,-73.58245,12718.89,-43166.23
158489.3,54713.25,-71.33005,17514.6,-51834.15
125892.5,66426.81,-68.68893,24141.58,-61884.62
99999.97,78930.01,-65.96469,32148.16,-72086.35
79432.8,94277.45,-63.06264,42709.21,-84048.56
63095.71,111266.9,-59.91394,55778.14,-96276.3
50118.7,130400.4,-56.60975,71764.38,-108876.7
39810.7,151025.4,-52.81989,91268.08,-120328.0
31622.76,173415.0,-48.84276,114129.2,-130565.3
25118.85,196365.6,-44.78875,139362.4,-138338.5
19952.61,219705.2,-40.6849,166603.8,-143225.5
15848.92,241476.9,-36.4151,194325.5,-143348.2
12589.25,262149.6,-32.28511,221621.4,-140022.7
9999.994,296893.3,-28.64247,260561.9,-142313.6
7943.277,300274.0,-24.23639,273807.7,-123263.2
6309.569,314763.7,-20.68149,294479.8,-111165.9
5011.869,326278.3,-17.54768,311095.4,-98372.72
3981.069,335210.4,-14.63423,324335.7,-84690.05
3162.275,342351.9,-12.23615,334574.5,-72558.54
2511.885,348381.2,-10.08744,342995.8,-61019.27
1995.261,352228.1,-8.280669,348555.9,-50728.72
1584.892,355017.1,-6.678422,352608.1,-41287.31
1258.924,357928.3,-5.449496,356310.6,-33991.85
999.9991,358995.0,-4.389938,357941.8,-27478.89
794.3275,359894.9,-3.584643,359190.8,-22501.71
630.9567,360203.9,-2.837143,359762.4,-17829.11
501.1867,361782.7,-2.242357,361505.6,-14155.3
398.1068,362107.1,-1.845131,361919.4,-11659.14
316.2274,362163.5,-1.502295,362039.1,-9494.84
251.1884,361219.3,-0.8693235,361177.7,-5480.41
199.526,361702.7,-0.8081196,361666.8,-5101.412
158.4891,363093.6,-0.7719096,363060.6,-4891.581
125.8924,363355.8,-0.63261,363333.7,-4011.777
99.99988,359458.4,-0.2863259,359453.9,-1796.325
79.43272,362629.7,-0.4178313,362620.0,-2644.465
63.09565,365786.6,-1.211408,365704.8,-7733.273
50.11866,340189.6,-2.316262,339911.7,-13748.89
39.81066,362686.2,-0.2878964,362681.6,-1822.396
25.11883,362754.0,-0.1533672,362752.7,-971.0055
19.95259,362849.8,-0.08395388,362849.4,-531.6733
15.84891,362244.4,-0.4675319,362232.3,-2955.871
12.58923,363117.5,-0.1165797,363116.8,-738.8348
9.999984,363007.9,-0.07004455,363007.6,-443.7799
5.011864,363105.1,-0.05576173,363105.0,-353.3832
1.258923,363058.4,-0.001245657,363058.4,-7.893185
