frequency,Z,phase,Z_re,Z_im
794328.2,24.88363,-1.171832,24.87843,-0.5088928
630957.3,25.60218,-3.017663,25.56668,-1.347796
501187.2,26.35336,-4.282937,26.27976,-1.968115
398107.1,27.11925,-5.083703,27.01257,-2.403063
316227.7,27.85988,-5.500777,27.73158,-2.670627
251188.6,28.54838,-5.629641,28.41069,-2.800532
199526.2,29.16415,-5.565024,29.02669,-2.828204
158489.3,29.73485,-5.416724,29.60207,-2.806937
125892.5,30.24838,-5.18826,30.12445,-2.735316
99999.97,30.7267,-4.930936,30.61298,-2.641109
79432.8,31.19295,-4.610826,31.092,-2.507515
63095.71,31.61733,-4.221917,31.53153,-2.327658
50118.7,31.99167,-3.762809,31.9227,-2.099492
39810.7,32.30808,-3.264122,32.25567,-1.839586
31622.76,32.54342,-2.765101,32.50553,-1.569939
25118.85,32.71662,-2.294872,32.69038,-1.310051
19952.61,32.84215,-1.876964,32.82453,-1.07569
15848.92,32.91906,-1.520094,32.90747,-0.8732614
12589.25,32.96734,-1.221433,32.95985,-0.7027457
9999.994,33.00609,-0.9778369,33.00128,-0.5632702
7943.277,33.0243,-0.7794591,33.02125,-0.449253
6309.569,33.03829,-0.6214969,33.03635,-0.3583649
5011.869,33.05167,-0.4963383,33.05043,-0.2863143
3981.069,33.04715,-0.398555,33.04635,-0.2298773
3162.275,33.04483,-0.3160944,33.04433,-0.1823037
2511.885,33.05799,-0.2535334,33.05766,-0.1462809
1995.261,33.05726,-0.1984173,33.05706,-0.1144783
1584.892,33.062,-0.150145,33.06188,-0.08663965
1258.924,33.05646,-0.1271302,33.05638,-0.07334695
999.9991,33.05017,-0.09933474,33.05012,-0.05729965
794.3275,33.05851,-0.06830772,33.05849,-0.03941217
630.9567,33.05541,-0.06247649,33.05539,-0.03604428
501.1867,33.05949,-0.05373763,33.05947,-0.03100644
398.1068,33.05047,-0.02855814,33.05047,-0.01647347
316.2274,33.04375,-0.02501685,33.04374,-0.01442777
251.1884,33.04512,-0.01606199,33.04512,-0.009263692
199.526,33.03872,-0.01574441,33.03872,-0.009078765
125.8924,33.03686,-0.001993556,33.03686,-0.001149488
99.99988,33.04656,-0.009511092,33.04656,-0.005485725
79.43272,33.05505,-0.002619953,33.05505,-0.001511502
50.11866,33.03543,-0.00252209,33.03543,-0.001454179
39.81066,33.03203,-0.01981431,33.03202,-0.0114233
31.62273,33.04558,-0.003033249,33.04558,-0.001749439
19.95259,33.04175,-0.006311986,33.04175,-0.003640042
15.84891,33.03003,-0.02008104,33.03003,-0.01157637
12.58923,33.03729,-0.008686486,33.03729,-0.005008711
9.999984,33.01987,-0.008023847,33.01987,-0.004624187
