frequency,Z,phase,Z_re,Z_im
1000000.0,1965.531,-67.78004,743.2916,-1819.569
794328.2,2388.839,-66.22397,963.0905,-2186.095
630957.3,2885.813,-64.642,1235.916,-2607.764
501187.2,3474.058,-62.79253,1588.388,-3089.677
398107.1,4135.169,-60.67268,2025.398,-3605.188
316227.7,4896.835,-58.06417,2590.275,-4155.655
251188.6,5737.074,-55.03012,3288.18,-4701.265
199526.2,6631.9,-51.95214,4087.369,-5222.596
158489.3,7589.913,-48.64682,5014.646,-5697.378
125892.5,8581.778,-45.27908,6038.604,-6097.719
99999.97,9617.631,-42.0016,7147.112,-6435.651
79432.8,10709.95,-38.65926,8363.131,-6690.374
63095.71,11828.57,-35.11577,9675.666,-6804.152
50118.7,12924.27,-31.36844,11035.22,-6727.588
39810.7,13940.53,-27.48657,12366.91,-6434.12
31622.76,14819.95,-23.6248,13577.88,-5939.028
25118.85,15537.53,-19.94531,14605.56,-5300.208
19952.61,16096.28,-16.59759,15425.62,-4597.871
15848.92,16505.68,-13.66252,16038.63,-3898.684
12589.25,16792.89,-11.13972,16476.5,-3244.423
9999.994,17021.43,-9.046248,16809.71,-2676.308
7943.277,17140.05,-7.279962,17001.88,-2171.948
6309.569,17240.07,-5.869269,17149.7,-1762.953
5011.869,17312.23,-4.714476,17253.65,-1422.897
3981.069,17354.63,-3.755165,17317.37,-1136.608
3162.275,17386.85,-3.012889,17362.82,-913.8634
2511.885,17406.72,-2.409961,17391.33,-731.9415
1995.261,17424.21,-1.920486,17414.42,-583.9293
1584.892,17432.27,-1.53257,17426.04,-466.2298
1258.924,17439.38,-1.218048,17435.44,-370.7151
999.9991,17442.33,-0.9685857,17439.84,-294.8487
794.3275,17444.07,-0.7907923,17442.41,-240.7541
630.9567,17449.68,-0.6490958,17448.56,-197.6808
501.1867,17450.57,-0.5163665,17449.87,-157.2676
398.1068,17439.09,-0.3706284,17438.72,-112.8072
316.2274,17443.96,-0.3121453,17443.7,-95.03361
251.1884,17450.89,-0.2877297,17450.67,-87.63503
199.526,17456.34,-0.2268249,17456.2,-69.10669
158.4891,17457.06,-0.1749417,17456.98,-53.30172
125.8924,17445.32,-0.1116351,17445.29,-33.99043
99.99988,17442.84,-0.02543655,17442.84,-7.743776
79.43272,17453.66,-0.0670105,17453.65,-20.41299
63.09565,17432.75,-0.08964928,17432.72,-27.27657
39.81066,17456.04,-0.02138793,17456.04,-6.516162
31.62273,17449.99,-0.05856962,17449.98,-17.83794
25.11883,17447.88,-0.03397661,17447.88,-10.34666
19.95259,17452.06,-0.05883309,17452.05,-17.92032
15.84891,17453.65,-0.04194969,17453.65,-12.77887
12.58923,17448.78,-0.0008601881,17448.78,-0.2619606
9.999984,17438.47,-0.01142487,17438.47,-3.47726
7.943269,17449.68,-0.01832117,17449.68,-5.57979
5.011864,17455.44,-0.05343371,17455.43,-16.27884
1.995259,17454.06,-0.004573583,17454.06,-1.393254
1.258923,17465.7,-0.01308616,17465.7,-3.989106
