frequency,Z,phase,Z_re,Z_im
1000000.0,84.008,-15.51054,80.94853,-22.46506
794328.2,88.92929,-17.57624,84.77772,-26.85438
630957.3,94.68694,-19.29279,89.36957,-31.28415
501187.2,101.2551,-20.53943,94.81844,-35.52555
398107.1,108.4678,-21.43278,100.967,-39.63517
316227.7,116.2795,-21.85045,107.9258,-43.27753
251188.6,124.2951,-21.90145,115.3243,-46.36346
199526.2,132.5081,-21.75709,123.0687,-49.11708
158489.3,140.899,-21.5122,131.0839,-51.66756
125892.5,149.6656,-21.25655,139.4833,-54.26046
99999.97,159.1095,-20.96269,148.5786,-56.92299
79432.8,169.677,-20.35541,159.0812,-59.02088
63095.71,180.877,-19.32434,170.6864,-59.85495
50118.7,192.0424,-17.81529,182.8335,-58.75525
39810.7,202.3729,-15.91725,194.6136,-55.50052
31622.76,211.0587,-13.79536,204.9704,-50.32795
25118.85,217.8558,-11.65896,213.361,-44.02556
19952.61,222.9326,-9.662978,219.7697,-37.41978
15848.92,226.416,-7.896734,224.269,-31.10686
12589.25,228.7629,-6.391721,227.3409,-25.4671
9999.994,230.3766,-5.14015,229.4501,-20.63996
7943.277,231.3485,-4.113629,230.7525,-16.59572
6309.569,232.0219,-3.282537,231.6412,-13.28551
5011.869,232.4894,-2.619803,232.2464,-10.62669
3981.069,232.7219,-2.077053,232.569,-8.434648
3162.275,232.8931,-1.659756,232.7954,-6.745553
2511.885,232.999,-1.319799,232.9372,-5.366619
1995.261,233.0584,-1.042575,233.0198,-4.240583
1584.892,233.1069,-0.8333407,233.0822,-3.390312
1258.924,233.125,-0.6554825,233.1098,-2.666969
999.9991,233.1386,-0.5245633,233.1288,-2.134438
794.3275,233.1715,-0.4162208,233.1653,-1.693842
630.9567,233.209,-0.3189716,233.2054,-1.298292
501.1867,233.2006,-0.2657425,233.1981,-1.0816
398.1068,233.1559,-0.2072946,233.1544,-0.8435499
316.2274,233.1778,-0.1692303,233.1768,-0.6887191
251.1884,233.1145,-0.1235173,233.114,-0.5025439
199.526,233.1122,-0.09453253,233.1118,-0.3846125
158.4891,233.1479,-0.08440148,233.1477,-0.3434463
125.8924,233.138,-0.06360069,233.1379,-0.2587928
99.99988,233.136,-0.06249879,233.1358,-0.2543069
79.43272,233.1816,-0.04477696,233.1815,-0.1822326
63.09565,233.1714,-0.02474242,233.1714,-0.100692
50.11866,233.2591,-0.03182091,233.2591,-0.1295473
39.81066,233.2115,-0.0213503,233.2114,-0.0869023
31.62273,233.1542,-0.01115813,233.1542,-0.04540586
25.11883,233.1426,-0.007381744,233.1426,-0.0300371
19.95259,233.1194,-0.01223111,233.1194,-0.04976471
15.84891,233.1495,-0.00834896,233.1495,-0.03397381
12.58923,233.2354,-0.02094999,233.2354,-0.08528167
9.999984,233.2093,-0.01142846,233.2093,-0.04651694
6.309563,233.1584,-0.005960203,233.1584,-0.02425434
5.011864,233.2195,-0.0001506009,233.2195,-0.0006130131
3.162272,233.1998,-0.03110375,233.1998,-0.1265955
2.511882,233.0867,-0.001985059,233.0867,-0.008075478
1.258923,233.1767,-0.01187985,233.1767,-0.04834742
