frequency,Z,phase,Z_re,Z_im
1000000.0,5341.399,-78.44553,1069.879,-5233.154
794328.2,6786.952,-75.89084,1654.456,-6582.21
630957.3,8485.1,-73.62896,2391.581,-8141.085
501187.2,10543.1,-71.65791,3317.805,-10007.45
398107.1,12870.49,-69.49452,4508.494,-12055.0
316227.7,15606.39,-66.8546,6134.338,-14350.24
251188.6,18680.98,-64.40607,8070.002,-16847.97
199526.2,22322.61,-61.1771,10761.82,-19557.15
158489.3,26221.21,-57.95887,13911.08,-22226.87
125892.5,30543.82,-54.56072,17710.52,-24884.98
99999.97,35010.03,-51.16938,21952.0,-27272.92
79432.8,40005.04,-47.69817,26924.84,-29588.11
63095.71,45269.6,-43.95096,32591.13,-31419.02
50118.7,50613.54,-40.03268,38753.66,-32555.87
39810.7,55941.64,-35.91241,45307.95,-32812.45
31622.76,60981.02,-31.77423,51841.77,-32110.99
25118.85,65489.87,-27.65886,58006.16,-30400.8
19952.61,69344.54,-23.76078,63466.6,-27940.22
15848.92,72549.5,-20.14501,68111.21,-24985.85
12589.25,75056.67,-16.80179,71852.53,-21696.01
9999.994,76461.44,-13.87802,74229.42,-18339.71
7943.277,78620.84,-11.59956,77015.16,-15808.32
6309.569,79713.85,-9.461796,78629.38,-13104.15
5011.869,80531.62,-7.739982,79797.93,-10845.81
3981.069,81106.25,-6.281422,80619.33,-8873.998
3162.275,81536.25,-5.088499,81214.91,-7231.806
2511.885,81857.33,-4.12314,81645.47,-5885.564
1995.261,82023.7,-3.313214,81886.6,-4740.5
1584.892,82203.58,-2.670008,82114.34,-3829.336
1258.924,82332.09,-2.133737,82275.01,-3065.4
999.9991,82387.07,-1.701955,82350.73,-2446.924
794.3275,82443.96,-1.40385,82419.21,-2019.823
630.9567,82461.29,-1.077336,82446.71,-1550.433
501.1867,82539.01,-0.8969003,82528.9,-1292.002
398.1068,82561.18,-0.7337681,82554.41,-1057.305
316.2274,82540.47,-0.5902914,82536.09,-850.3605
251.1884,82572.58,-0.3539876,82571.01,-510.1508
199.526,82571.54,-0.4222952,82569.3,-608.5833
158.4891,82555.26,-0.289232,82554.21,-416.7414
125.8924,82657.65,-0.2066695,82657.12,-298.1507
99.99988,82668.82,-0.3214724,82667.52,-463.8318
79.43272,82602.07,-0.1525789,82601.78,-219.9693
63.09565,82696.41,-0.3244791,82695.09,-468.3261
50.11866,81282.37,-0.4698467,81279.64,-666.5382
39.81066,82625.33,-0.1206541,82625.15,-173.9933
25.11883,82569.47,-0.03571316,82569.45,-51.46655
19.95259,82635.1,-0.02708395,82635.09,-39.06195
15.84891,82582.13,-0.1322278,82581.91,-190.5837
12.58923,82589.39,-0.0388029,82589.37,-55.93269
9.999984,82603.65,-0.041926,82603.63,-60.44494
6.309563,82540.67,-0.02596989,82540.66,-37.41238
5.011864,82604.59,-0.002923915,82604.59,-4.215473
3.981065,82546.16,-0.005251613,82546.16,-7.566011
3.162272,82608.42,-0.00815181,82608.42,-11.75319
