frequency,Z,phase,Z_re,Z_im
1000000.0,1013.727,-61.74345,479.9189,-892.9276
794328.2,1212.481,-61.00085,587.8066,-1060.468
630957.3,1445.487,-60.01137,722.4952,-1251.972
501187.2,1719.028,-58.72717,892.3712,-1469.262
398107.1,2032.817,-56.8645,1111.181,-1702.241
316227.7,2385.904,-54.55492,1383.639,-1943.729
251188.6,2769.695,-51.80214,1712.721,-2176.648
199526.2,3181.203,-48.81689,2094.719,-2394.202
158489.3,3604.152,-45.71384,2516.571,-2580.073
125892.5,4046.691,-42.64031,2976.83,-2741.203
99999.97,4505.567,-39.65835,3468.672,-2875.49
79432.8,4994.17,-36.55321,4011.837,-2974.373
63095.71,5493.026,-33.29541,4591.353,-3015.429
50118.7,5982.164,-29.76937,5192.704,-2970.205
39810.7,6435.917,-26.05174,5782.013,-2826.543
31622.76,6823.515,-22.31995,6312.281,-2591.423
25118.85,7133.924,-18.76459,6754.743,-2294.845
19952.61,7371.113,-15.53737,7101.742,-1974.477
15848.92,7540.434,-12.7195,7355.389,-1660.24
12589.25,7659.12,-10.31924,7535.233,-1371.998
9999.994,7742.514,-8.343555,7660.565,-1123.504
7943.277,7795.133,-6.695456,7741.969,-908.8499
6309.569,7830.262,-5.358927,7796.037,-731.3043
5011.869,7856.622,-4.28498,7834.661,-587.0258
3981.069,7869.574,-3.436468,7855.423,-471.7159
3162.275,7879.878,-2.741947,7870.856,-376.9555
2511.885,7887.804,-2.170454,7882.145,-298.731
1995.261,7894.268,-1.732888,7890.658,-238.7226
1584.892,7896.735,-1.378149,7894.451,-189.9237
1258.924,7898.091,-1.109039,7896.612,-152.8689
999.9991,7898.698,-0.8690755,7897.789,-119.8047
794.3275,7900.57,-0.7125352,7899.959,-98.24963
630.9567,7900.765,-0.5768188,7900.364,-79.53872
501.1867,7899.939,-0.4374738,7899.709,-60.31828
398.1068,7898.756,-0.3492913,7898.609,-48.15275
316.2274,7902.039,-0.2704397,7901.951,-37.29799
251.1884,7899.604,-0.215971,7899.548,-29.77674
199.526,7896.791,-0.1577903,7896.761,-21.74742
158.4891,7901.669,-0.1499107,7901.642,-20.67418
125.8924,7902.265,-0.09328247,7902.255,-12.86556
99.99988,7907.317,-0.07233104,7907.311,-9.982312
79.43272,7902.81,-0.07031488,7902.804,-9.698532
63.09565,7896.803,-0.04401784,7896.8,-6.066767
39.81066,7903.124,-0.03707854,7903.122,-5.114447
31.62273,7903.054,-0.02102502,7903.053,-2.900071
25.11883,7895.926,-0.002975671,7895.926,-0.4100769
19.95259,7905.604,-0.0521868,7905.601,-7.200673
15.84891,7900.863,-0.01252291,7900.863,-1.72686
6.309563,7907.808,-0.01254468,7907.808,-1.731382
3.981065,7900.56,-0.03379406,7900.559,-4.659889
1.0,7901.078,-0.003705787,7901.078,-0.5110275
